
T0E34 000:333 SEGGER J-Link V4.96d Log File (0003ms, 0330ms total)
T0E34 000:333 DLL Compiled: Jan 29 2015 11:45:37 (0004ms, 0331ms total)
T0E34 000:333 Logging started @ 2017-02-21 15:22 (0005ms, 0332ms total)
T0E34 000:338 JLINK_SetWarnOutHandler(...) (0001ms, 0333ms total)
T0E34 000:339 JLINK_OpenEx(...)
Firmware: J-Link ARM V8 compiled Nov 28 2014 13:44:46
Hardware: V8.00
S/N: 17935099
Feature(s): RDI,FlashDL,FlashBP,JFlash  returns O.K. (0291ms, 0624ms total)
T0E34 000:630 JLINK_SetErrorOutHandler(...) (0001ms, 0625ms total)
T0E34 000:631 JLINK_ExecCommand("ProjectFile = "E:\stm32\rfid\practice\2-27i\prj\JLinkSettings.ini"", ...)  returns 0x00 (0008ms, 0633ms total)
T0E34 000:639 JLINK_ExecCommand("Device = STM32F103ZE", ...)Device "STM32F103ZE" selected.  returns 0x00 (0000ms, 0634ms total)
T0E34 000:640 JLINK_ExecCommand("DisableConnectionTimeout", ...)  returns 0x01 (0000ms, 0635ms total)
T0E34 000:641 JLINK_GetHardwareVersion()  returns 0x13880 (0001ms, 0636ms total)
T0E34 000:642 JLINK_GetDLLVersion()  returns 49604 (0001ms, 0637ms total)
T0E34 000:643 JLINK_GetFirmwareString(...) (0000ms, 0637ms total)
T0E34 000:643 JLINK_GetDLLVersion()  returns 49604 (0001ms, 0638ms total)
T0E34 000:644 JLINK_GetCompileDateTime() (0001ms, 0639ms total)
T0E34 000:645 JLINK_GetFirmwareString(...) (0000ms, 0639ms total)
T0E34 000:646 JLINK_GetHardwareVersion()  returns 0x13880 (0000ms, 0640ms total)
T0E34 000:646 JLINK_TIF_Select(JLINKARM_TIF_JTAG)  returns 0x00 (0021ms, 0661ms total)
T0E34 000:667 JLINK_SetSpeed(10000) (0002ms, 0663ms total)
T0E34 000:669 JLINK_GetIdData(...) >0x2F8 JTAG>TotalIRLen = 9, IRPrint = 0x0011 >0x30 JTAG> >0x210 JTAG> >0x40 JTAG> >0x40 JTAG> >0x40 JTAG> >0x30 JTAG> >0x40 JTAG> >0x40 JTAG> >0x40 JTAG> >0x40 JTAG> >0x40 JTAG> >0x40 JTAG> >0x40 JTAG> >0x40 JTAG> >0x2F8 JTAG>TotalIRLen = 9, IRPrint = 0x0011 >0x30 JTAG> >0x210 JTAG> >0x70 JTAG> >0x40 JTAG> >0x40 JTAG> >0x40 JTAG> >0x50 JTAG> >0x80 JTAG> >0x40 JTAG> >0x30 JTAG> >0x40 JTAG> >0x40 JTAG> >0x30 JTAG> >0x40 JTAG> >0x50 JTAG>
Found Cortex-M3 r1p1, Little endian. -- CPU_WriteMem(4 bytes @ 0xE0002000) -- CPU_ReadMem(4 bytes @ 0xE000EDF0) -- CPU_ReadMem(4 bytes @ 0xE0002000)FPUnit: 6 code (BP) slots and 2 literal slots -- CPU_ReadMem(4 bytes @ 0xE000EDFC) -- CPU_ReadMem(4 bytes @ 0xE0001000) -- CPU_WriteMem(4 bytes @ 0xE0001000) -- CPU_ReadMem(4 bytes @ 0xE000ED88) -- CPU_WriteMem(4 bytes @ 0xE000ED88) -- CPU_ReadMem(4 bytes @ 0xE000ED88) -- CPU_WriteMem(4 bytes @ 0xE000ED88) -- CPU_ReadMem(4 bytes @ 0xE00FF010)TPIU fitted.
 -- CPU_ReadMem(4 bytes @ 0xE00FF014)ETM fitted. -- CPU_ReadMem(4 bytes @ 0xE00FF018) ScanLen=9 NumDevices=2 aId[0]=0x3BA00477 aIrRead[0]=0 aScanLen[0]=0 aScanRead[0]=0 (0115ms, 0778ms total)
T0E34 000:784 JLINK_JTAG_GetDeviceID(DeviceIndex = 0)  returns 0x3BA00477 (0001ms, 0779ms total)
T0E34 000:785 JLINK_JTAG_GetDeviceInfo(DeviceIndex = 0)  returns 0x00 (0001ms, 0780ms total)
T0E34 000:786 JLINK_JTAG_GetDeviceID(DeviceIndex = 1)  returns 0x6414041 (0001ms, 0781ms total)
T0E34 000:787 JLINK_JTAG_GetDeviceInfo(DeviceIndex = 1)  returns 0x00 (0001ms, 0782ms total)
T0E34 000:788 JLINK_GetDLLVersion()  returns 49604 (0000ms, 0782ms total)
T0E34 000:789 JLINK_CORE_GetFound()  returns 0x30000FF (0000ms, 0783ms total)
T0E34 000:789 JLINK_GetDebugInfo(0x100) -- Value=0xE00FF003  returns 0x00 (0001ms, 0784ms total)
T0E34 000:790 JLINK_ReadMem (0xE00FF000, 0x0020 Bytes, ...) -- CPU is running -- CPU_ReadMem(32 bytes @ 0xE00FF000) - Data: 03 F0 F0 FF 03 20 F0 FF 03 30 F0 FF 03 10 F0 FF ...  returns 0x00 (0005ms, 0789ms total)
T0E34 000:795 JLINK_ReadMem (0xE000EFF0, 0x0010 Bytes, ...) -- CPU is running -- CPU_ReadMem(16 bytes @ 0xE000EFF0) - Data: 0D 00 00 00 E0 00 00 00 05 00 00 00 B1 00 00 00  returns 0x00 (0003ms, 0792ms total)
T0E34 000:798 JLINK_ReadMem (0xE000EFD0, 0x0020 Bytes, ...) -- CPU is running -- CPU_ReadMem(32 bytes @ 0xE000EFD0) - Data: 04 00 00 00 00 00 00 00 00 00 00 00 00 00 00 00 ...  returns 0x00 (0004ms, 0796ms total)
T0E34 000:802 JLINK_ReadMem (0xE0001FF0, 0x0010 Bytes, ...) -- CPU is running -- CPU_ReadMem(16 bytes @ 0xE0001FF0) - Data: 0D 00 00 00 E0 00 00 00 05 00 00 00 B1 00 00 00  returns 0x00 (0003ms, 0799ms total)
T0E34 000:806 JLINK_ReadMem (0xE0001FD0, 0x0020 Bytes, ...) -- CPU is running -- CPU_ReadMem(32 bytes @ 0xE0001FD0) - Data: 04 00 00 00 00 00 00 00 00 00 00 00 00 00 00 00 ...  returns 0x00 (0003ms, 0803ms total)
T0E34 000:810 JLINK_ReadMem (0xE0002FF0, 0x0010 Bytes, ...) -- CPU is running -- CPU_ReadMem(16 bytes @ 0xE0002FF0) - Data: 0D 00 00 00 E0 00 00 00 05 00 00 00 B1 00 00 00  returns 0x00 (0003ms, 0807ms total)
T0E34 000:814 JLINK_ReadMem (0xE0002FD0, 0x0020 Bytes, ...) -- CPU is running -- CPU_ReadMem(32 bytes @ 0xE0002FD0) - Data: 04 00 00 00 00 00 00 00 00 00 00 00 00 00 00 00 ...  returns 0x00 (0003ms, 0811ms total)
T0E34 000:817 JLINK_ReadMem (0xE0000FF0, 0x0010 Bytes, ...) -- CPU is running -- CPU_ReadMem(16 bytes @ 0xE0000FF0) - Data: 0D 00 00 00 E0 00 00 00 05 00 00 00 B1 00 00 00  returns 0x00 (0003ms, 0814ms total)
T0E34 000:820 JLINK_ReadMem (0xE0000FD0, 0x0020 Bytes, ...) -- CPU is running -- CPU_ReadMem(32 bytes @ 0xE0000FD0) - Data: 04 00 00 00 00 00 00 00 00 00 00 00 00 00 00 00 ...  returns 0x00 (0004ms, 0818ms total)
T0E34 000:824 JLINK_ReadMem (0xE0040FF0, 0x0010 Bytes, ...) -- CPU is running -- CPU_ReadMem(16 bytes @ 0xE0040FF0) - Data: 0D 00 00 00 90 00 00 00 05 00 00 00 B1 00 00 00  returns 0x00 (0003ms, 0821ms total)
T0E34 000:827 JLINK_ReadMem (0xE0040FD0, 0x0020 Bytes, ...) -- CPU is running -- CPU_ReadMem(32 bytes @ 0xE0040FD0) - Data: 04 00 00 00 00 00 00 00 00 00 00 00 00 00 00 00 ...  returns 0x00 (0004ms, 0825ms total)
T0E34 000:832 JLINK_ReadMem (0xE0041FF0, 0x0010 Bytes, ...) -- CPU is running -- CPU_ReadMem(16 bytes @ 0xE0041FF0) - Data: 0D 00 00 00 90 00 00 00 05 00 00 00 B1 00 00 00  returns 0x00 (0003ms, 0829ms total)
T0E34 000:835 JLINK_ReadMem (0xE0041FD0, 0x0020 Bytes, ...) -- CPU is running -- CPU_ReadMem(32 bytes @ 0xE0041FD0) - Data: 04 00 00 00 00 00 00 00 00 00 00 00 00 00 00 00 ...  returns 0x00 (0004ms, 0833ms total)
T0E34 000:839 JLINK_ReadMemU32(0xE000ED00, 0x0001 Items, ...) -- CPU is running -- CPU_ReadMem(4 bytes @ 0xE000ED00) - Data: 31 C2 1F 41  returns 0x01 (0003ms, 0836ms total)
T0E34 000:842 JLINK_SetResetType(JLINKARM_RESET_TYPE_NORMAL)  returns JLINKARM_RESET_TYPE_NORMAL (0001ms, 0837ms total)
T0E34 000:843 JLINK_Reset() -- CPU is running -- CPU_WriteMem(4 bytes @ 0xE000EDF0) -- CPU is running -- CPU_WriteMem(4 bytes @ 0xE000EDFC) -- CPU is running -- CPU_WriteMem(4 bytes @ 0xE000ED0C) -- CPU is running -- CPU_ReadMem(4 bytes @ 0xE000EDF0) -- CPU is running -- CPU_ReadMem(4 bytes @ 0xE000EDF0) -- CPU is running -- CPU_WriteMem(4 bytes @ 0xE000EDF0) -- CPU is running -- CPU_WriteMem(4 bytes @ 0xE000EDFC) -- CPU is running -- CPU_ReadMem(4 bytes @ 0xE000EDF0) >0x80 JTAG> >0x40 JTAG> >0x30 JTAG>
 >0x40 JTAG> >0x50 JTAG> >0x40 JTAG> -- CPU_WriteMem(4 bytes @ 0xE000EDFC) -- CPU_WriteMem(4 bytes @ 0xE0001028) -- CPU_WriteMem(4 bytes @ 0xE0001038) -- CPU_WriteMem(4 bytes @ 0xE0001048) -- CPU_WriteMem(4 bytes @ 0xE0001058) -- CPU_WriteMem(4 bytes @ 0xE0002000) -- CPU_ReadMem(4 bytes @ 0xE000EDFC) -- CPU_ReadMem(4 bytes @ 0xE0001000) (0069ms, 0906ms total)
T0E34 000:912 JLINK_ReadReg(R15 (PC))  returns 0x08000144 (0001ms, 0907ms total)
T0E34 000:913 JLINK_ReadReg(XPSR)  returns 0x01000000 (0001ms, 0908ms total)
T0E34 000:914 JLINK_Halt()  returns 0x00 (0001ms, 0909ms total)
T0E34 000:915 JLINK_IsHalted()  returns TRUE (0001ms, 0910ms total)
T0E34 000:916 JLINK_ReadMemU32(0xE000EDF0, 0x0001 Items, ...) -- CPU_ReadMem(4 bytes @ 0xE000EDF0) - Data: 03 00 03 00  returns 0x01 (0003ms, 0912ms total)
T0E34 000:919 JLINK_WriteU32(0xE000EDF0, 0xA05F0003) -- CPU_WriteMem(4 bytes @ 0xE000EDF0)  returns 0x00 (0003ms, 0915ms total)
T0E34 000:922 JLINK_WriteU32(0xE000EDFC, 0x01000000) -- CPU_WriteMem(4 bytes @ 0xE000EDFC)  returns 0x00 (0002ms, 0917ms total)
T0E34 000:924 JLINK_GetHWStatus(...)  returns 0x00 (0003ms, 0920ms total)
T0E34 000:927 JLINK_GetNumBPUnits(Type = 0xFFFFFF00)  returns 0x06 (0001ms, 0921ms total)
T0E34 000:928 JLINK_GetNumBPUnits(Type = 0xF0)  returns 0x2000 (0001ms, 0922ms total)
T0E34 000:929 JLINK_GetNumWPUnits()  returns 0x04 (0001ms, 0923ms total)
T0E34 000:930 JLINK_GetSpeed()  returns 0x2580 (0001ms, 0924ms total)
T0E34 000:931 JLINK_ReadMemU32(0xE000E004, 0x0001 Items, ...) -- CPU_ReadMem(4 bytes @ 0xE000E004) - Data: 01 00 00 00  returns 0x01 (0004ms, 0928ms total)
T0E34 000:935 JLINK_ReadMemU32(0xE000E004, 0x0001 Items, ...) -- CPU_ReadMem(4 bytes @ 0xE000E004) - Data: 01 00 00 00  returns 0x01 (0004ms, 0932ms total)
T0E34 000:939 JLINK_WriteMem(0xE0001000, 0x001C Bytes, ...) - Data: 01 00 00 00 00 00 00 00 00 00 00 00 00 00 00 00 ... -- CPU_WriteMem(28 bytes @ 0xE0001000)  returns 0x1C (0003ms, 0935ms total)
T0E34 000:942 JLINK_ReadMem (0xE0001000, 0x001C Bytes, ...) -- CPU_ReadMem(28 bytes @ 0xE0001000) - Data: 01 00 00 40 00 00 00 00 00 00 00 00 00 00 00 00 ...  returns 0x00 (0003ms, 0938ms total)
T0E34 000:945 JLINK_ReadReg(R15 (PC))  returns 0x08000144 (0001ms, 0939ms total)
T0E34 000:946 JLINK_ReadReg(XPSR)  returns 0x01000000 (0001ms, 0940ms total)
T0E34 001:018 JLINK_SetResetType(JLINKARM_RESET_TYPE_NORMAL)  returns JLINKARM_RESET_TYPE_NORMAL (0001ms, 0941ms total)
T0E34 001:019 JLINK_Reset() -- CPU_WriteMem(4 bytes @ 0xE000EDF0) -- CPU_WriteMem(4 bytes @ 0xE000EDFC) -- CPU_WriteMem(4 bytes @ 0xE000ED0C) -- CPU_ReadMem(4 bytes @ 0xE000EDF0) -- CPU_ReadMem(4 bytes @ 0xE000EDF0) -- CPU_WriteMem(4 bytes @ 0xE000EDF0) -- CPU_WriteMem(4 bytes @ 0xE000EDFC) -- CPU is running -- CPU_ReadMem(4 bytes @ 0xE000EDF0) >0x80 JTAG> >0x40 JTAG> >0x30 JTAG> >0x40 JTAG> >0x50 JTAG> >0x40 JTAG> -- CPU_WriteMem(4 bytes @ 0xE000EDFC) -- CPU_WriteMem(4 bytes @ 0xE0001028)
 -- CPU_WriteMem(4 bytes @ 0xE0001038) -- CPU_WriteMem(4 bytes @ 0xE0001048) -- CPU_WriteMem(4 bytes @ 0xE0001058) -- CPU_WriteMem(4 bytes @ 0xE0002000) -- CPU_ReadMem(4 bytes @ 0xE000EDFC) -- CPU_ReadMem(4 bytes @ 0xE0001000) (0074ms, 1015ms total)
T0E34 001:093 JLINK_ReadReg(R15 (PC))  returns 0x08000144 (0001ms, 1016ms total)
T0E34 001:095 JLINK_ReadReg(XPSR)  returns 0x01000000 (0000ms, 1017ms total)
T0E34 001:097 JLINK_ReadMem (0x08000144, 0x003C Bytes, ...) -- CPU_ReadMem(64 bytes @ 0x08000140) -- Updating C cache (64 bytes @ 0x08000140) -- Read from C cache (60 bytes @ 0x08000144) - Data: 06 48 80 47 06 48 00 47 FE E7 FE E7 FE E7 FE E7 ...  returns 0x00 (0003ms, 1020ms total)
T0E34 001:149 JLINK_ReadMem (0x40020400, 0x0004 Bytes, ...) -- CPU_ReadMem(4 bytes @ 0x40020400) - Data: 00 00 00 00  returns 0x00 (0008ms, 1029ms total)
T0E34 001:157 JLINK_ReadMem (0x40020408, 0x000C Bytes, ...) -- CPU_ReadMem(12 bytes @ 0x40020408) - Data: 00 00 00 00 00 00 00 00 00 00 00 00  returns 0x00 (0004ms, 1033ms total)
T0E34 001:161 JLINK_ReadMem (0x40020414, 0x0004 Bytes, ...) -- CPU_ReadMem(4 bytes @ 0x40020414) - Data: 00 00 00 00  returns 0x00 (0003ms, 1036ms total)
T0E34 001:164 JLINK_ReadMem (0x4002041C, 0x000C Bytes, ...) -- CPU_ReadMem(12 bytes @ 0x4002041C) - Data: 00 00 00 00 00 00 00 00 00 00 00 00  returns 0x00 (0003ms, 1039ms total)
T0E34 001:167 JLINK_ReadMem (0x40020428, 0x0004 Bytes, ...) -- CPU_ReadMem(4 bytes @ 0x40020428) - Data: 00 00 00 00  returns 0x00 (0004ms, 1043ms total)
T0E34 001:171 JLINK_ReadMem (0x40020430, 0x000C Bytes, ...) -- CPU_ReadMem(12 bytes @ 0x40020430) - Data: 00 00 00 00 00 00 00 00 00 00 00 00  returns 0x00 (0003ms, 1046ms total)
T0E34 001:174 JLINK_ReadMem (0x4002043C, 0x0004 Bytes, ...) -- CPU_ReadMem(4 bytes @ 0x4002043C) - Data: 00 00 00 00  returns 0x00 (0003ms, 1049ms total)
T0E34 001:177 JLINK_ReadMem (0x40020444, 0x000C Bytes, ...) -- CPU_ReadMem(12 bytes @ 0x40020444) - Data: 00 00 00 00 00 00 00 00 00 00 00 00  returns 0x00 (0002ms, 1051ms total)
T0E34 001:179 JLINK_ReadMem (0x40020450, 0x0004 Bytes, ...) -- CPU_ReadMem(4 bytes @ 0x40020450) - Data: 00 00 00 00  returns 0x00 (0003ms, 1054ms total)
T0E34 001:182 JLINK_ReadMem (0x40020458, 0x000C Bytes, ...) -- CPU_ReadMem(12 bytes @ 0x40020458) - Data: 00 00 00 00 00 00 00 00 00 00 00 00  returns 0x00 (0002ms, 1056ms total)
T0E34 001:184 JLINK_ReadMem (0x40020464, 0x0004 Bytes, ...) -- CPU_ReadMem(4 bytes @ 0x40020464) - Data: 00 00 00 00  returns 0x00 (0003ms, 1059ms total)
T0E34 001:187 JLINK_ReadMem (0x4002046C, 0x000C Bytes, ...) -- CPU_ReadMem(12 bytes @ 0x4002046C) - Data: 00 00 00 00 00 00 00 00 00 00 00 00  returns 0x00 (0003ms, 1062ms total)
T0E34 001:190 JLINK_ReadMem (0x40020478, 0x0004 Bytes, ...) -- CPU_ReadMem(4 bytes @ 0x40020478) - Data: 00 00 00 00  returns 0x00 (0003ms, 1065ms total)
T0E34 001:193 JLINK_ReadMem (0x40020480, 0x000C Bytes, ...) -- CPU_ReadMem(12 bytes @ 0x40020480) - Data: 00 00 00 00 00 00 00 00 00 00 00 00  returns 0x00 (0003ms, 1068ms total)
T0E34 001:196 JLINK_ReadMem (0x4002048C, 0x0004 Bytes, ...) -- CPU_ReadMem(4 bytes @ 0x4002048C) - Data: 00 00 00 00  returns 0x00 (0004ms, 1072ms total)
T0E34 001:209 JLINK_ReadMem (0x40010800, 0x000C Bytes, ...) -- CPU_ReadMem(12 bytes @ 0x40010800) - Data: 44 44 44 44 44 44 84 88 00 00 00 00  returns 0x00 (0003ms, 1075ms total)
T0E34 001:212 JLINK_ReadMem (0x4001080C, 0x0004 Bytes, ...) -- CPU_ReadMem(4 bytes @ 0x4001080C) - Data: 00 A0 00 00  returns 0x00 (0004ms, 1079ms total)
T0E34 001:216 JLINK_ReadMem (0x40010818, 0x0004 Bytes, ...) -- CPU_ReadMem(4 bytes @ 0x40010818) - Data: 00 00 00 00  returns 0x00 (0004ms, 1083ms total)
T0E34 001:229 JLINK_ReadMem (0x40011000, 0x000C Bytes, ...) -- CPU_ReadMem(12 bytes @ 0x40011000) - Data: 44 44 44 44 44 44 44 44 00 00 00 00  returns 0x00 (0003ms, 1086ms total)
T0E34 001:232 JLINK_ReadMem (0x4001100C, 0x0004 Bytes, ...) -- CPU_ReadMem(4 bytes @ 0x4001100C) - Data: 00 00 00 00  returns 0x00 (0003ms, 1089ms total)
T0E34 001:236 JLINK_ReadMem (0x40011018, 0x0004 Bytes, ...) -- CPU_ReadMem(4 bytes @ 0x40011018) - Data: 00 00 00 00  returns 0x00 (0003ms, 1093ms total)
T0E34 001:248 JLINK_ReadMem (0x40021000, 0x0024 Bytes, ...) -- CPU_ReadMem(36 bytes @ 0x40021000) - Data: 83 51 00 00 00 00 00 00 00 00 00 00 00 00 00 00 ...  returns 0x00 (0005ms, 1098ms total)
T0E34 001:253 JLINK_ReadMem (0x40021024, 0x0004 Bytes, ...) -- CPU_ReadMem(4 bytes @ 0x40021024) - Data: 00 00 00 1C  returns 0x00 (0003ms, 1101ms total)
T0E34 001:503 JLINK_ReadMem (0x00000000, 0x0110 Bytes, ...) -- CPU_ReadMem(4 bytes @ 0x00000004) -- CPU_ReadMem(320 bytes @ 0x08000000) -- Updating C cache (320 bytes @ 0x08000000) -- Read from C cache (272 bytes @ 0x08000000) - Data: 78 F6 00 20 45 01 00 08 6F 1B 00 08 FD 0D 00 08 ...  returns 0x00 (0008ms, 1109ms total)
T0744 005:225 JLINK_SetBPEx(Addr = 0x080044E4, Type = 0xFFFFFFF2)  returns 0x00000001 (0023ms, 1132ms total)
T0744 005:249 JLINK_SetBPEx(Addr = 0x08002BB8, Type = 0xFFFFFFF2)  returns 0x00000002 (0000ms, 1133ms total)
T0744 005:250 JLINK_SetBPEx(Addr = 0x08002F32, Type = 0xFFFFFFF2)  returns 0x00000003 (0000ms, 1134ms total)
T0744 005:251 JLINK_SetBPEx(Addr = 0x08003004, Type = 0xFFFFFFF2)  returns 0x00000004 (0001ms, 1136ms total)
T0744 005:252 JLINK_Go() -- CPU_WriteMem(4 bytes @ 0xE0002008) -- CPU_WriteMem(4 bytes @ 0xE000200C) -- CPU_WriteMem(4 bytes @ 0xE0002010) -- CPU_WriteMem(4 bytes @ 0xE0002014) -- CPU_WriteMem(4 bytes @ 0xE0002018) -- CPU_WriteMem(4 bytes @ 0xE000201C) -- CPU_WriteMem(4 bytes @ 0xE0001004) (0022ms, 1158ms total)
T0744 005:375 JLINK_IsHalted()  returns TRUE (0020ms, 1179ms total)
T0744 005:395 JLINK_Halt()  returns 0x00 (0001ms, 1160ms total)
T0744 005:396 JLINK_IsHalted()  returns TRUE (0001ms, 1161ms total)
T0744 005:397 JLINK_IsHalted()  returns TRUE (0001ms, 1161ms total)
T0744 005:398 JLINK_IsHalted()  returns TRUE (0000ms, 1160ms total)
T0744 005:399 JLINK_ReadReg(R15 (PC))  returns 0x080044E4 (0000ms, 1160ms total)
T0744 005:400 JLINK_ReadReg(XPSR)  returns 0x61000000 (0000ms, 1161ms total)
T0744 005:400 JLINK_ClrBPEx(BPHandle = 0x00000001)  returns 0x00 (0001ms, 1162ms total)
T0744 005:401 JLINK_ClrBPEx(BPHandle = 0x00000002)  returns 0x00 (0001ms, 1163ms total)
T0744 005:402 JLINK_ClrBPEx(BPHandle = 0x00000003)  returns 0x00 (0001ms, 1164ms total)
T0744 005:403 JLINK_ClrBPEx(BPHandle = 0x00000004)  returns 0x00 (0001ms, 1165ms total)
T0744 005:404 JLINK_ReadMemU32(0xE000ED30, 0x0001 Items, ...) -- CPU_ReadMem(4 bytes @ 0xE000ED30) - Data: 03 00 00 00  returns 0x01 (0003ms, 1168ms total)
T0744 005:407 JLINK_ReadMemU32(0xE0001028, 0x0001 Items, ...) -- CPU_ReadMem(4 bytes @ 0xE0001028) - Data: 00 00 00 00  returns 0x01 (0004ms, 1172ms total)
T0744 005:411 JLINK_ReadMemU32(0xE0001038, 0x0001 Items, ...) -- CPU_ReadMem(4 bytes @ 0xE0001038) - Data: 00 02 00 00  returns 0x01 (0004ms, 1176ms total)
T0744 005:415 JLINK_ReadMemU32(0xE0001048, 0x0001 Items, ...) -- CPU_ReadMem(4 bytes @ 0xE0001048) - Data: 00 00 00 00  returns 0x01 (0003ms, 1179ms total)
T0744 005:419 JLINK_ReadMemU32(0xE0001058, 0x0001 Items, ...) -- CPU_ReadMem(4 bytes @ 0xE0001058) - Data: 00 00 00 00  returns 0x01 (0003ms, 1183ms total)
T0744 005:422 JLINK_ReadReg(R0)  returns 0x080044E5 (0001ms, 1184ms total)
T0744 005:423 JLINK_ReadReg(R1)  returns 0x2000F678 (0001ms, 1185ms total)
T0744 005:424 JLINK_ReadReg(R2)  returns 0x00000000 (0001ms, 1186ms total)
T0744 005:425 JLINK_ReadReg(R3)  returns 0x08004059 (0001ms, 1187ms total)
T0744 005:426 JLINK_ReadReg(R4)  returns 0x0800464C (0001ms, 1188ms total)
T0744 005:427 JLINK_ReadReg(R5)  returns 0x0800464C (0001ms, 1189ms total)
T0744 005:428 JLINK_ReadReg(R6)  returns 0x00000000 (0001ms, 1190ms total)
T0744 005:429 JLINK_ReadReg(R7)  returns 0x00000000 (0000ms, 1190ms total)
T0744 005:431 JLINK_ReadReg(R8)  returns 0x00000000 (0001ms, 1193ms total)
T0744 005:432 JLINK_ReadReg(R9)  returns 0x20000160 (0001ms, 1194ms total)
T0744 005:433 JLINK_ReadReg(R10)  returns 0x00000000 (0001ms, 1195ms total)
T0744 005:434 JLINK_ReadReg(R11)  returns 0x00000000 (0000ms, 1195ms total)
T0744 005:435 JLINK_ReadReg(R12)  returns 0x00000000 (0000ms, 1196ms total)
T0744 005:435 JLINK_ReadReg(R13 (SP))  returns 0x2000F678 (0001ms, 1197ms total)
T0744 005:436 JLINK_ReadReg(R14)  returns 0x08000251 (0001ms, 1198ms total)
T0744 005:437 JLINK_ReadReg(R15 (PC))  returns 0x080044E4 (0001ms, 1199ms total)
T0744 005:438 JLINK_ReadReg(XPSR)  returns 0x61000000 (0001ms, 1200ms total)
T0744 005:439 JLINK_ReadReg(MSP)  returns 0x2000F678 (0000ms, 1200ms total)
T0744 005:440 JLINK_ReadReg(PSP)  returns 0x20001000 (0000ms, 1201ms total)
T0744 005:440 JLINK_ReadReg(CFBP)  returns 0x00000000 (0001ms, 1202ms total)
T0E34 005:444 JLINK_ReadMem (0x40021000, 0x0024 Bytes, ...) -- CPU_ReadMem(36 bytes @ 0x40021000) - Data: 83 51 03 03 0A 04 1D 00 00 00 00 00 00 00 00 00 ...  returns 0x00 (0005ms, 1207ms total)
T0E34 005:449 JLINK_ReadMem (0x40021024, 0x0004 Bytes, ...) -- CPU_ReadMem(4 bytes @ 0x40021024) - Data: 00 00 00 1C  returns 0x00 (0004ms, 1211ms total)
T0E34 005:454 JLINK_ReadMem (0x40010800, 0x000C Bytes, ...) -- CPU_ReadMem(12 bytes @ 0x40010800) - Data: 44 44 44 44 44 44 84 88 00 00 00 00  returns 0x00 (0005ms, 1216ms total)
T0E34 005:459 JLINK_ReadMem (0x4001080C, 0x0004 Bytes, ...) -- CPU_ReadMem(4 bytes @ 0x4001080C) - Data: 00 A0 00 00  returns 0x00 (0003ms, 1219ms total)
T0E34 005:462 JLINK_ReadMem (0x40010818, 0x0004 Bytes, ...) -- CPU_ReadMem(4 bytes @ 0x40010818) - Data: 00 00 00 00  returns 0x00 (0003ms, 1222ms total)
T0E34 005:465 JLINK_ReadMem (0x40020400, 0x0004 Bytes, ...) -- CPU_ReadMem(4 bytes @ 0x40020400) - Data: 00 00 00 00  returns 0x00 (0004ms, 1226ms total)
T0E34 005:469 JLINK_ReadMem (0x40020408, 0x000C Bytes, ...) -- CPU_ReadMem(12 bytes @ 0x40020408) - Data: 00 00 00 00 00 00 00 00 00 00 00 00  returns 0x00 (0003ms, 1229ms total)
T0E34 005:472 JLINK_ReadMem (0x40020414, 0x0004 Bytes, ...) -- CPU_ReadMem(4 bytes @ 0x40020414) - Data: 00 00 00 00  returns 0x00 (0003ms, 1232ms total)
T0E34 005:475 JLINK_ReadMem (0x4002041C, 0x000C Bytes, ...) -- CPU_ReadMem(12 bytes @ 0x4002041C) - Data: 00 00 00 00 00 00 00 00 00 00 00 00  returns 0x00 (0003ms, 1235ms total)
T0E34 005:478 JLINK_ReadMem (0x40020428, 0x0004 Bytes, ...) -- CPU_ReadMem(4 bytes @ 0x40020428) - Data: 00 00 00 00  returns 0x00 (0002ms, 1237ms total)
T0E34 005:480 JLINK_ReadMem (0x40020430, 0x000C Bytes, ...) -- CPU_ReadMem(12 bytes @ 0x40020430) - Data: 00 00 00 00 00 00 00 00 00 00 00 00  returns 0x00 (0003ms, 1240ms total)
T0E34 005:483 JLINK_ReadMem (0x4002043C, 0x0004 Bytes, ...) -- CPU_ReadMem(4 bytes @ 0x4002043C) - Data: 00 00 00 00  returns 0x00 (0003ms, 1243ms total)
T0E34 005:486 JLINK_ReadMem (0x40020444, 0x000C Bytes, ...) -- CPU_ReadMem(12 bytes @ 0x40020444) - Data: 00 00 00 00 00 00 00 00 00 00 00 00  returns 0x00 (0003ms, 1246ms total)
T0E34 005:489 JLINK_ReadMem (0x40020450, 0x0004 Bytes, ...) -- CPU_ReadMem(4 bytes @ 0x40020450) - Data: 00 00 00 00  returns 0x00 (0003ms, 1249ms total)
T0E34 005:492 JLINK_ReadMem (0x40020458, 0x000C Bytes, ...) -- CPU_ReadMem(12 bytes @ 0x40020458) - Data: 00 00 00 00 00 00 00 00 00 00 00 00  returns 0x00 (0003ms, 1252ms total)
T0E34 005:495 JLINK_ReadMem (0x40020464, 0x0004 Bytes, ...) -- CPU_ReadMem(4 bytes @ 0x40020464) - Data: 00 00 00 00  returns 0x00 (0004ms, 1256ms total)
T0E34 005:499 JLINK_ReadMem (0x4002046C, 0x000C Bytes, ...) -- CPU_ReadMem(12 bytes @ 0x4002046C) - Data: 00 00 00 00 00 00 00 00 00 00 00 00  returns 0x00 (0004ms, 1260ms total)
T0E34 005:503 JLINK_ReadMem (0x40020478, 0x0004 Bytes, ...) -- CPU_ReadMem(4 bytes @ 0x40020478) - Data: 00 00 00 00  returns 0x00 (0003ms, 1263ms total)
T0E34 005:506 JLINK_ReadMem (0x40020480, 0x000C Bytes, ...) -- CPU_ReadMem(12 bytes @ 0x40020480) - Data: 00 00 00 00 00 00 00 00 00 00 00 00  returns 0x00 (0002ms, 1265ms total)
T0E34 005:508 JLINK_ReadMem (0x4002048C, 0x0004 Bytes, ...) -- CPU_ReadMem(4 bytes @ 0x4002048C) - Data: 00 00 00 00  returns 0x00 (0003ms, 1268ms total)
T0E34 005:511 JLINK_ReadMem (0x40011000, 0x000C Bytes, ...) -- CPU_ReadMem(12 bytes @ 0x40011000) - Data: 44 44 44 44 44 44 44 44 00 00 00 00  returns 0x00 (0002ms, 1270ms total)
T0E34 005:514 JLINK_ReadMem (0x4001100C, 0x0004 Bytes, ...) -- CPU_ReadMem(4 bytes @ 0x4001100C) - Data: 00 00 00 00  returns 0x00 (0003ms, 1274ms total)
T0E34 005:517 JLINK_ReadMem (0x40011018, 0x0004 Bytes, ...) -- CPU_ReadMem(4 bytes @ 0x40011018) - Data: 00 00 00 00  returns 0x00 (0004ms, 1278ms total)
T0E34 005:521 JLINK_ReadMem (0x080044E4, 0x003C Bytes, ...) -- CPU_ReadMem(128 bytes @ 0x080044C0) -- Updating C cache (128 bytes @ 0x080044C0) -- Read from C cache (60 bytes @ 0x080044E4) - Data: FC F7 ED F9 FB F7 66 FF FD F7 3E FB FE F7 91 FD ...  returns 0x00 (0004ms, 1282ms total)
T0744 007:056 JLINK_SetBPEx(Addr = 0x08002BB8, Type = 0xFFFFFFF2)  returns 0x00000005 (0011ms, 1294ms total)
T0744 007:067 JLINK_SetBPEx(Addr = 0x08002F32, Type = 0xFFFFFFF2)  returns 0x00000006 (0001ms, 1295ms total)
T0744 007:068 JLINK_SetBPEx(Addr = 0x08003004, Type = 0xFFFFFFF2)  returns 0x00000007 (0001ms, 1296ms total)
T0744 007:069 JLINK_Go() -- CPU_WriteMem(4 bytes @ 0xE0002008) -- CPU_WriteMem(4 bytes @ 0xE000200C) -- CPU_WriteMem(4 bytes @ 0xE0002010) -- CPU_WriteMem(4 bytes @ 0xE0002014) (0024ms, 1320ms total)
T0744 007:194 JLINK_IsHalted()  returns FALSE (0009ms, 1329ms total)
T0744 007:303 JLINK_IsHalted()  returns FALSE (0008ms, 1328ms total)
T0744 007:411 JLINK_IsHalted()  returns FALSE (0018ms, 1338ms total)
T0744 007:530 JLINK_IsHalted()  returns FALSE (0012ms, 1332ms total)
T0744 007:642 JLINK_ReadMemU32(0xE0001004, 0x0001 Items, ...) -- CPU is running -- CPU_ReadMem(4 bytes @ 0xE0001004) - Data: 9D 41 74 02  returns 0x01 (0010ms, 1330ms total)
T0E34 007:653 JLINK_ReadMem (0x40021000, 0x0024 Bytes, ...) -- CPU is running -- CPU_ReadMem(36 bytes @ 0x40021000) - Data: 83 51 03 03 0A 04 1D 00 00 00 00 00 00 00 00 00 ...  returns 0x00 (0005ms, 1335ms total)
T0E34 007:658 JLINK_ReadMem (0x40021024, 0x0004 Bytes, ...) -- CPU is running -- CPU_ReadMem(4 bytes @ 0x40021024) - Data: 00 00 00 1C  returns 0x00 (0004ms, 1339ms total)
T0E34 007:663 JLINK_ReadMem (0x40010800, 0x000C Bytes, ...) -- CPU is running -- CPU_ReadMem(12 bytes @ 0x40010800) - Data: 44 44 44 44 44 44 84 88 00 00 00 00  returns 0x00 (0005ms, 1344ms total)
T0E34 007:668 JLINK_ReadMem (0x4001080C, 0x0004 Bytes, ...) -- CPU is running -- CPU_ReadMem(4 bytes @ 0x4001080C) - Data: 00 A0 00 00  returns 0x00 (0004ms, 1348ms total)
T0E34 007:672 JLINK_ReadMem (0x40010818, 0x0004 Bytes, ...) -- CPU is running -- CPU_ReadMem(4 bytes @ 0x40010818) - Data: 00 00 00 00  returns 0x00 (0004ms, 1352ms total)
T0E34 007:676 JLINK_ReadMem (0x40020400, 0x0004 Bytes, ...) -- CPU is running -- CPU_ReadMem(4 bytes @ 0x40020400) - Data: 00 00 00 00  returns 0x00 (0007ms, 1359ms total)
T0E34 007:683 JLINK_ReadMem (0x40020408, 0x000C Bytes, ...) -- CPU is running -- CPU_ReadMem(12 bytes @ 0x40020408) - Data: 00 00 00 00 00 00 00 00 00 00 00 00  returns 0x00 (0004ms, 1363ms total)
T0E34 007:687 JLINK_ReadMem (0x40020414, 0x0004 Bytes, ...) -- CPU is running -- CPU_ReadMem(4 bytes @ 0x40020414) - Data: 00 00 00 00  returns 0x00 (0006ms, 1369ms total)
T0E34 007:693 JLINK_ReadMem (0x4002041C, 0x000C Bytes, ...) -- CPU is running -- CPU_ReadMem(12 bytes @ 0x4002041C) - Data: 00 00 00 00 00 00 00 00 00 00 00 00  returns 0x00 (0004ms, 1373ms total)
T0E34 007:697 JLINK_ReadMem (0x40020428, 0x0004 Bytes, ...) -- CPU is running -- CPU_ReadMem(4 bytes @ 0x40020428) - Data: 00 00 00 00  returns 0x00 (0004ms, 1377ms total)
T0E34 007:701 JLINK_ReadMem (0x40020430, 0x000C Bytes, ...) -- CPU is running -- CPU_ReadMem(12 bytes @ 0x40020430) - Data: 00 00 00 00 00 00 00 00 00 00 00 00  returns 0x00 (0004ms, 1381ms total)
T0E34 007:705 JLINK_ReadMem (0x4002043C, 0x0004 Bytes, ...) -- CPU is running -- CPU_ReadMem(4 bytes @ 0x4002043C) - Data: 00 00 00 00  returns 0x00 (0004ms, 1385ms total)
T0E34 007:709 JLINK_ReadMem (0x40020444, 0x000C Bytes, ...) -- CPU is running -- CPU_ReadMem(12 bytes @ 0x40020444) - Data: 00 00 00 00 00 00 00 00 00 00 00 00  returns 0x00 (0003ms, 1388ms total)
T0E34 007:712 JLINK_ReadMem (0x40020450, 0x0004 Bytes, ...) -- CPU is running -- CPU_ReadMem(4 bytes @ 0x40020450) - Data: 00 00 00 00  returns 0x00 (0004ms, 1392ms total)
T0E34 007:716 JLINK_ReadMem (0x40020458, 0x000C Bytes, ...) -- CPU is running -- CPU_ReadMem(12 bytes @ 0x40020458) - Data: 00 00 00 00 00 00 00 00 00 00 00 00  returns 0x00 (0003ms, 1395ms total)
T0E34 007:719 JLINK_ReadMem (0x40020464, 0x0004 Bytes, ...) -- CPU is running -- CPU_ReadMem(4 bytes @ 0x40020464) - Data: 00 00 00 00  returns 0x00 (0004ms, 1399ms total)
T0E34 007:723 JLINK_ReadMem (0x4002046C, 0x000C Bytes, ...) -- CPU is running -- CPU_ReadMem(12 bytes @ 0x4002046C) - Data: 00 00 00 00 00 00 00 00 00 00 00 00  returns 0x00 (0004ms, 1403ms total)
T0E34 007:727 JLINK_ReadMem (0x40020478, 0x0004 Bytes, ...) -- CPU is running -- CPU_ReadMem(4 bytes @ 0x40020478) - Data: 00 00 00 00  returns 0x00 (0005ms, 1408ms total)
T0E34 007:732 JLINK_ReadMem (0x40020480, 0x000C Bytes, ...) -- CPU is running -- CPU_ReadMem(12 bytes @ 0x40020480) - Data: 00 00 00 00 00 00 00 00 00 00 00 00  returns 0x00 (0004ms, 1412ms total)
T0E34 007:736 JLINK_ReadMem (0x4002048C, 0x0004 Bytes, ...) -- CPU is running -- CPU_ReadMem(4 bytes @ 0x4002048C) - Data: 00 00 00 00  returns 0x00 (0004ms, 1416ms total)
T0E34 007:740 JLINK_ReadMem (0x40011000, 0x000C Bytes, ...) -- CPU is running -- CPU_ReadMem(12 bytes @ 0x40011000) - Data: 44 44 44 44 44 44 44 44 00 00 00 00  returns 0x00 (0005ms, 1421ms total)
T0E34 007:745 JLINK_ReadMem (0x4001100C, 0x0004 Bytes, ...) -- CPU is running -- CPU_ReadMem(4 bytes @ 0x4001100C) - Data: 00 00 00 00  returns 0x00 (0004ms, 1425ms total)
T0E34 007:749 JLINK_ReadMem (0x40011018, 0x0004 Bytes, ...) -- CPU is running -- CPU_ReadMem(4 bytes @ 0x40011018) - Data: 00 00 00 00  returns 0x00 (0005ms, 1430ms total)
T0744 007:754 JLINK_IsHalted()  returns FALSE (0006ms, 1436ms total)
T0744 007:860 JLINK_IsHalted()  returns FALSE (0012ms, 1442ms total)
T0744 007:972 JLINK_IsHalted()  returns FALSE (0008ms, 1438ms total)
T0744 008:082 JLINK_IsHalted()  returns FALSE (0014ms, 1444ms total)
T0744 008:196 JLINK_ReadMemU32(0xE0001004, 0x0001 Items, ...) -- CPU is running -- CPU_ReadMem(4 bytes @ 0xE0001004) - Data: DA 22 D1 04  returns 0x01 (0007ms, 1437ms total)
T0E34 008:204 JLINK_ReadMem (0x40021000, 0x0024 Bytes, ...) -- CPU is running -- CPU_ReadMem(36 bytes @ 0x40021000) - Data: 83 51 03 03 0A 04 1D 00 00 00 00 00 00 00 00 00 ...  returns 0x00 (0004ms, 1441ms total)
T0E34 008:208 JLINK_ReadMem (0x40021024, 0x0004 Bytes, ...) -- CPU is running -- CPU_ReadMem(4 bytes @ 0x40021024) - Data: 00 00 00 1C  returns 0x00 (0005ms, 1446ms total)
T0E34 008:213 JLINK_ReadMem (0x40010800, 0x000C Bytes, ...) -- CPU is running -- CPU_ReadMem(12 bytes @ 0x40010800) - Data: 44 44 44 44 44 44 84 88 00 00 00 00  returns 0x00 (0004ms, 1450ms total)
T0E34 008:217 JLINK_ReadMem (0x4001080C, 0x0004 Bytes, ...) -- CPU is running -- CPU_ReadMem(4 bytes @ 0x4001080C) - Data: 00 A0 00 00  returns 0x00 (0003ms, 1453ms total)
T0E34 008:221 JLINK_ReadMem (0x40010818, 0x0004 Bytes, ...) -- CPU is running -- CPU_ReadMem(4 bytes @ 0x40010818) - Data: 00 00 00 00  returns 0x00 (0003ms, 1457ms total)
T0E34 008:225 JLINK_ReadMem (0x40020400, 0x0004 Bytes, ...) -- CPU is running -- CPU_ReadMem(4 bytes @ 0x40020400) - Data: 00 00 00 00  returns 0x00 (0004ms, 1462ms total)
T0E34 008:229 JLINK_ReadMem (0x40020408, 0x000C Bytes, ...) -- CPU is running -- CPU_ReadMem(12 bytes @ 0x40020408) - Data: 00 00 00 00 00 00 00 00 00 00 00 00  returns 0x00 (0004ms, 1466ms total)
T0E34 008:233 JLINK_ReadMem (0x40020414, 0x0004 Bytes, ...) -- CPU is running -- CPU_ReadMem(4 bytes @ 0x40020414) - Data: 00 00 00 00  returns 0x00 (0004ms, 1470ms total)
T0E34 008:237 JLINK_ReadMem (0x4002041C, 0x000C Bytes, ...) -- CPU is running -- CPU_ReadMem(12 bytes @ 0x4002041C) - Data: 00 00 00 00 00 00 00 00 00 00 00 00  returns 0x00 (0004ms, 1474ms total)
T0E34 008:241 JLINK_ReadMem (0x40020428, 0x0004 Bytes, ...) -- CPU is running -- CPU_ReadMem(4 bytes @ 0x40020428) - Data: 00 00 00 00  returns 0x00 (0003ms, 1477ms total)
T0E34 008:245 JLINK_ReadMem (0x40020430, 0x000C Bytes, ...) -- CPU is running -- CPU_ReadMem(12 bytes @ 0x40020430) - Data: 00 00 00 00 00 00 00 00 00 00 00 00  returns 0x00 (0003ms, 1481ms total)
T0E34 008:249 JLINK_ReadMem (0x4002043C, 0x0004 Bytes, ...) -- CPU is running -- CPU_ReadMem(4 bytes @ 0x4002043C) - Data: 00 00 00 00  returns 0x00 (0003ms, 1485ms total)
T0E34 008:252 JLINK_ReadMem (0x40020444, 0x000C Bytes, ...) -- CPU is running -- CPU_ReadMem(12 bytes @ 0x40020444) - Data: 00 00 00 00 00 00 00 00 00 00 00 00  returns 0x00 (0004ms, 1489ms total)
T0E34 008:256 JLINK_ReadMem (0x40020450, 0x0004 Bytes, ...) -- CPU is running -- CPU_ReadMem(4 bytes @ 0x40020450) - Data: 00 00 00 00  returns 0x00 (0004ms, 1493ms total)
T0E34 008:260 JLINK_ReadMem (0x40020458, 0x000C Bytes, ...) -- CPU is running -- CPU_ReadMem(12 bytes @ 0x40020458) - Data: 00 00 00 00 00 00 00 00 00 00 00 00  returns 0x00 (0004ms, 1497ms total)
T0E34 008:264 JLINK_ReadMem (0x40020464, 0x0004 Bytes, ...) -- CPU is running -- CPU_ReadMem(4 bytes @ 0x40020464) - Data: 00 00 00 00  returns 0x00 (0004ms, 1501ms total)
T0E34 008:268 JLINK_ReadMem (0x4002046C, 0x000C Bytes, ...) -- CPU is running -- CPU_ReadMem(12 bytes @ 0x4002046C) - Data: 00 00 00 00 00 00 00 00 00 00 00 00  returns 0x00 (0004ms, 1505ms total)
T0E34 008:272 JLINK_ReadMem (0x40020478, 0x0004 Bytes, ...) -- CPU is running -- CPU_ReadMem(4 bytes @ 0x40020478) - Data: 00 00 00 00  returns 0x00 (0004ms, 1509ms total)
T0E34 008:276 JLINK_ReadMem (0x40020480, 0x000C Bytes, ...) -- CPU is running -- CPU_ReadMem(12 bytes @ 0x40020480) - Data: 00 00 00 00 00 00 00 00 00 00 00 00  returns 0x00 (0004ms, 1513ms total)
T0E34 008:280 JLINK_ReadMem (0x4002048C, 0x0004 Bytes, ...) -- CPU is running -- CPU_ReadMem(4 bytes @ 0x4002048C) - Data: 00 00 00 00  returns 0x00 (0003ms, 1516ms total)
T0E34 008:284 JLINK_ReadMem (0x40011000, 0x000C Bytes, ...) -- CPU is running -- CPU_ReadMem(12 bytes @ 0x40011000) - Data: 44 44 44 44 44 44 44 44 00 00 00 00  returns 0x00 (0005ms, 1522ms total)
T0E34 008:289 JLINK_ReadMem (0x4001100C, 0x0004 Bytes, ...) -- CPU is running -- CPU_ReadMem(4 bytes @ 0x4001100C) - Data: 00 00 00 00  returns 0x00 (0004ms, 1526ms total)
T0E34 008:293 JLINK_ReadMem (0x40011018, 0x0004 Bytes, ...) -- CPU is running -- CPU_ReadMem(4 bytes @ 0x40011018) - Data: 00 00 00 00  returns 0x00 (0004ms, 1530ms total)
T0744 008:297 JLINK_IsHalted()  returns FALSE (0006ms, 1536ms total)
T0744 008:404 JLINK_IsHalted()  returns FALSE (0009ms, 1539ms total)
T0744 008:513 JLINK_IsHalted()  returns FALSE (0003ms, 1533ms total)
T0744 008:616 JLINK_IsHalted()  returns FALSE (0023ms, 1553ms total)
T0744 008:799 JLINK_ReadMemU32(0xE0001004, 0x0001 Items, ...) -- CPU is running -- CPU_ReadMem(4 bytes @ 0xE0001004) - Data: F4 08 9E 07  returns 0x01 (0036ms, 1566ms total)
T0E34 008:837 JLINK_ReadMem (0x40021000, 0x0024 Bytes, ...) -- CPU is running -- CPU_ReadMem(36 bytes @ 0x40021000) - Data: 83 51 03 03 0A 04 1D 00 00 00 00 00 00 00 00 00 ...  returns 0x00 (0095ms, 1662ms total)
T0E34 008:933 JLINK_ReadMem (0x40021024, 0x0004 Bytes, ...) -- CPU is running -- CPU_ReadMem(4 bytes @ 0x40021024) - Data: 00 00 00 1C  returns 0x00 (0030ms, 1693ms total)
T0E34 009:007 JLINK_ReadMem (0x40010800, 0x000C Bytes, ...) -- CPU is running -- CPU_ReadMem(12 bytes @ 0x40010800) - Data: 44 34 B1 B4 B4 44 84 88 3F 5F 00 00  returns 0x00 (0055ms, 1787ms total)
T0E34 009:064 JLINK_ReadMem (0x4001080C, 0x0004 Bytes, ...) -- CPU is running -- CPU_ReadMem(4 bytes @ 0x4001080C) - Data: 18 A0 00 00  returns 0x00 (0004ms, 1791ms total)
T0E34 009:068 JLINK_ReadMem (0x40010818, 0x0004 Bytes, ...) -- CPU is running -- CPU_ReadMem(4 bytes @ 0x40010818) - Data: 00 00 00 00  returns 0x00 (0003ms, 1794ms total)
T0E34 009:072 JLINK_ReadMem (0x40020400, 0x0004 Bytes, ...) -- CPU is running -- CPU_ReadMem(4 bytes @ 0x40020400) - Data: 00 00 00 00  returns 0x00 (0003ms, 1798ms total)
T0E34 009:076 JLINK_ReadMem (0x40020408, 0x000C Bytes, ...) -- CPU is running -- CPU_ReadMem(12 bytes @ 0x40020408) - Data: 00 00 00 00 00 00 00 00 00 00 00 00  returns 0x00 (0003ms, 1802ms total)
T0E34 009:079 JLINK_ReadMem (0x40020414, 0x0004 Bytes, ...) -- CPU is running -- CPU_ReadMem(4 bytes @ 0x40020414) - Data: 00 00 00 00  returns 0x00 (0005ms, 1807ms total)
T0E34 009:084 JLINK_ReadMem (0x4002041C, 0x000C Bytes, ...) -- CPU is running -- CPU_ReadMem(12 bytes @ 0x4002041C) - Data: 00 00 00 00 00 00 00 00 00 00 00 00  returns 0x00 (0008ms, 1815ms total)
T0E34 009:092 JLINK_ReadMem (0x40020428, 0x0004 Bytes, ...) -- CPU is running -- CPU_ReadMem(4 bytes @ 0x40020428) - Data: 00 00 00 00  returns 0x00 (0004ms, 1819ms total)
T0E34 009:096 JLINK_ReadMem (0x40020430, 0x000C Bytes, ...) -- CPU is running -- CPU_ReadMem(12 bytes @ 0x40020430) - Data: 00 00 00 00 00 00 00 00 00 00 00 00  returns 0x00 (0006ms, 1825ms total)
T0E34 009:102 JLINK_ReadMem (0x4002043C, 0x0004 Bytes, ...) -- CPU is running -- CPU_ReadMem(4 bytes @ 0x4002043C) - Data: 00 00 00 00  returns 0x00 (0004ms, 1829ms total)
T0E34 009:106 JLINK_ReadMem (0x40020444, 0x000C Bytes, ...) -- CPU is running -- CPU_ReadMem(12 bytes @ 0x40020444) - Data: 00 00 00 00 00 00 00 00 00 00 00 00  returns 0x00 (0003ms, 1832ms total)
T0E34 009:109 JLINK_ReadMem (0x40020450, 0x0004 Bytes, ...) -- CPU is running -- CPU_ReadMem(4 bytes @ 0x40020450) - Data: 00 00 00 00  returns 0x00 (0004ms, 1836ms total)
T0E34 009:113 JLINK_ReadMem (0x40020458, 0x000C Bytes, ...) -- CPU is running -- CPU_ReadMem(12 bytes @ 0x40020458) - Data: 00 00 00 00 00 00 00 00 00 00 00 00  returns 0x00 (0004ms, 1840ms total)
T0E34 009:117 JLINK_ReadMem (0x40020464, 0x0004 Bytes, ...) -- CPU is running -- CPU_ReadMem(4 bytes @ 0x40020464) - Data: 00 00 00 00  returns 0x00 (0004ms, 1844ms total)
T0E34 009:121 JLINK_ReadMem (0x4002046C, 0x000C Bytes, ...) -- CPU is running -- CPU_ReadMem(12 bytes @ 0x4002046C) - Data: 00 00 00 00 00 00 00 00 00 00 00 00  returns 0x00 (0004ms, 1848ms total)
T0E34 009:125 JLINK_ReadMem (0x40020478, 0x0004 Bytes, ...) -- CPU is running -- CPU_ReadMem(4 bytes @ 0x40020478) - Data: 00 00 00 00  returns 0x00 (0006ms, 1854ms total)
T0E34 009:131 JLINK_ReadMem (0x40020480, 0x000C Bytes, ...) -- CPU is running -- CPU_ReadMem(12 bytes @ 0x40020480) - Data: 00 00 00 00 00 00 00 00 00 00 00 00  returns 0x00 (0005ms, 1859ms total)
T0E34 009:136 JLINK_ReadMem (0x4002048C, 0x0004 Bytes, ...) -- CPU is running -- CPU_ReadMem(4 bytes @ 0x4002048C) - Data: 00 00 00 00  returns 0x00 (0006ms, 1865ms total)
T0E34 009:142 JLINK_ReadMem (0x40011000, 0x000C Bytes, ...) -- CPU is running -- CPU_ReadMem(12 bytes @ 0x40011000) - Data: 44 44 44 44 44 44 44 44 00 00 00 00  returns 0x00 (0006ms, 1871ms total)
T0E34 009:148 JLINK_ReadMem (0x4001100C, 0x0004 Bytes, ...) -- CPU is running -- CPU_ReadMem(4 bytes @ 0x4001100C) - Data: 00 00 00 00  returns 0x00 (0005ms, 1876ms total)
T0E34 009:153 JLINK_ReadMem (0x40011018, 0x0004 Bytes, ...) -- CPU is running -- CPU_ReadMem(4 bytes @ 0x40011018) - Data: 00 00 00 00  returns 0x00 (0004ms, 1880ms total)
T0744 009:157 JLINK_IsHalted()  returns FALSE (0004ms, 1884ms total)
T0744 009:261 JLINK_IsHalted()  returns FALSE (0006ms, 1886ms total)
T0744 009:368 JLINK_ReadMemU32(0xE0001004, 0x0001 Items, ...) -- CPU is running -- CPU_ReadMem(4 bytes @ 0xE0001004) - Data: 46 D2 FC 09  returns 0x01 (0010ms, 1890ms total)
T0E34 009:380 JLINK_ReadMem (0x40021000, 0x0024 Bytes, ...) -- CPU is running -- CPU_ReadMem(36 bytes @ 0x40021000) - Data: 83 51 03 03 0A 04 1D 00 00 00 00 00 00 00 00 00 ...  returns 0x00 (0004ms, 1894ms total)
T0E34 009:384 JLINK_ReadMem (0x40021024, 0x0004 Bytes, ...) -- CPU is running -- CPU_ReadMem(4 bytes @ 0x40021024) - Data: 00 00 00 1C  returns 0x00 (0004ms, 1898ms total)
T0E34 009:389 JLINK_ReadMem (0x40010800, 0x000C Bytes, ...) -- CPU is running -- CPU_ReadMem(12 bytes @ 0x40010800) - Data: 44 34 B1 B4 B4 44 84 88 1F 5F 00 00  returns 0x00 (0003ms, 1901ms total)
T0E34 009:392 JLINK_ReadMem (0x4001080C, 0x0004 Bytes, ...) -- CPU is running -- CPU_ReadMem(4 bytes @ 0x4001080C) - Data: 18 A0 00 00  returns 0x00 (0004ms, 1905ms total)
T0E34 009:396 JLINK_ReadMem (0x40010818, 0x0004 Bytes, ...) -- CPU is running -- CPU_ReadMem(4 bytes @ 0x40010818) - Data: 00 00 00 00  returns 0x00 (0004ms, 1909ms total)
T0E34 009:400 JLINK_ReadMem (0x40020400, 0x0004 Bytes, ...) -- CPU is running -- CPU_ReadMem(4 bytes @ 0x40020400) - Data: 00 00 00 00  returns 0x00 (0006ms, 1915ms total)
T0E34 009:406 JLINK_ReadMem (0x40020408, 0x000C Bytes, ...) -- CPU is running -- CPU_ReadMem(12 bytes @ 0x40020408) - Data: 00 00 00 00 00 00 00 00 00 00 00 00  returns 0x00 (0003ms, 1918ms total)
T0E34 009:410 JLINK_ReadMem (0x40020414, 0x0004 Bytes, ...) -- CPU is running -- CPU_ReadMem(4 bytes @ 0x40020414) - Data: 00 00 00 00  returns 0x00 (0003ms, 1922ms total)
T0E34 009:413 JLINK_ReadMem (0x4002041C, 0x000C Bytes, ...) -- CPU is running -- CPU_ReadMem(12 bytes @ 0x4002041C) - Data: 00 00 00 00 00 00 00 00 00 00 00 00  returns 0x00 (0004ms, 1926ms total)
T0E34 009:417 JLINK_ReadMem (0x40020428, 0x0004 Bytes, ...) -- CPU is running -- CPU_ReadMem(4 bytes @ 0x40020428) - Data: 00 00 00 00  returns 0x00 (0004ms, 1930ms total)
T0E34 009:421 JLINK_ReadMem (0x40020430, 0x000C Bytes, ...) -- CPU is running -- CPU_ReadMem(12 bytes @ 0x40020430) - Data: 00 00 00 00 00 00 00 00 00 00 00 00  returns 0x00 (0004ms, 1934ms total)
T0E34 009:425 JLINK_ReadMem (0x4002043C, 0x0004 Bytes, ...) -- CPU is running -- CPU_ReadMem(4 bytes @ 0x4002043C) - Data: 00 00 00 00  returns 0x00 (0004ms, 1938ms total)
T0E34 009:429 JLINK_ReadMem (0x40020444, 0x000C Bytes, ...) -- CPU is running -- CPU_ReadMem(12 bytes @ 0x40020444) - Data: 00 00 00 00 00 00 00 00 00 00 00 00  returns 0x00 (0004ms, 1942ms total)
T0E34 009:433 JLINK_ReadMem (0x40020450, 0x0004 Bytes, ...) -- CPU is running -- CPU_ReadMem(4 bytes @ 0x40020450) - Data: 00 00 00 00  returns 0x00 (0004ms, 1946ms total)
T0E34 009:437 JLINK_ReadMem (0x40020458, 0x000C Bytes, ...) -- CPU is running -- CPU_ReadMem(12 bytes @ 0x40020458) - Data: 00 00 00 00 00 00 00 00 00 00 00 00  returns 0x00 (0004ms, 1950ms total)
T0E34 009:441 JLINK_ReadMem (0x40020464, 0x0004 Bytes, ...) -- CPU is running -- CPU_ReadMem(4 bytes @ 0x40020464) - Data: 00 00 00 00  returns 0x00 (0004ms, 1954ms total)
T0E34 009:445 JLINK_ReadMem (0x4002046C, 0x000C Bytes, ...) -- CPU is running -- CPU_ReadMem(12 bytes @ 0x4002046C) - Data: 00 00 00 00 00 00 00 00 00 00 00 00  returns 0x00 (0004ms, 1958ms total)
T0E34 009:449 JLINK_ReadMem (0x40020478, 0x0004 Bytes, ...) -- CPU is running -- CPU_ReadMem(4 bytes @ 0x40020478) - Data: 00 00 00 00  returns 0x00 (0003ms, 1961ms total)
T0E34 009:453 JLINK_ReadMem (0x40020480, 0x000C Bytes, ...) -- CPU is running -- CPU_ReadMem(12 bytes @ 0x40020480) - Data: 00 00 00 00 00 00 00 00 00 00 00 00  returns 0x00 (0003ms, 1965ms total)
T0E34 009:457 JLINK_ReadMem (0x4002048C, 0x0004 Bytes, ...) -- CPU is running -- CPU_ReadMem(4 bytes @ 0x4002048C) - Data: 00 00 00 00  returns 0x00 (0003ms, 1969ms total)
T0E34 009:461 JLINK_ReadMem (0x40011000, 0x000C Bytes, ...) -- CPU is running -- CPU_ReadMem(12 bytes @ 0x40011000) - Data: 44 44 44 44 44 44 44 44 00 00 00 00  returns 0x00 (0004ms, 1974ms total)
T0E34 009:465 JLINK_ReadMem (0x4001100C, 0x0004 Bytes, ...) -- CPU is running -- CPU_ReadMem(4 bytes @ 0x4001100C) - Data: 00 00 00 00  returns 0x00 (0003ms, 1977ms total)
T0E34 009:469 JLINK_ReadMem (0x40011018, 0x0004 Bytes, ...) -- CPU is running -- CPU_ReadMem(4 bytes @ 0x40011018) - Data: 00 00 00 00  returns 0x00 (0003ms, 1981ms total)
T0744 009:473 JLINK_IsHalted()  returns FALSE (0007ms, 1989ms total)
T0744 009:580 JLINK_IsHalted()  returns FALSE (0005ms, 1987ms total)
T0744 009:686 JLINK_IsHalted()  returns FALSE (0003ms, 1985ms total)
T0744 009:789 JLINK_IsHalted()  returns FALSE (0004ms, 1986ms total)
T0744 009:893 JLINK_ReadMemU32(0xE0001004, 0x0001 Items, ...) -- CPU is running -- CPU_ReadMem(4 bytes @ 0xE0001004) - Data: EB 30 37 0C  returns 0x01 (0004ms, 1986ms total)
T0E34 009:898 JLINK_ReadMem (0x40021000, 0x0024 Bytes, ...) -- CPU is running -- CPU_ReadMem(36 bytes @ 0x40021000) - Data: 83 51 03 03 0A 04 1D 00 00 00 00 00 00 00 00 00 ...  returns 0x00 (0004ms, 1990ms total)
T0E34 009:902 JLINK_ReadMem (0x40021024, 0x0004 Bytes, ...) -- CPU is running -- CPU_ReadMem(4 bytes @ 0x40021024) - Data: 00 00 00 1C  returns 0x00 (0005ms, 1995ms total)
T0E34 009:907 JLINK_ReadMem (0x40010800, 0x000C Bytes, ...) -- CPU is running -- CPU_ReadMem(12 bytes @ 0x40010800) - Data: 44 34 B1 B4 B4 44 84 88 1F 1F 00 00  returns 0x00 (0005ms, 2000ms total)
T0E34 009:912 JLINK_ReadMem (0x4001080C, 0x0004 Bytes, ...) -- CPU is running -- CPU_ReadMem(4 bytes @ 0x4001080C) - Data: 18 A0 00 00  returns 0x00 (0004ms, 2004ms total)
T0E34 009:917 JLINK_ReadMem (0x40010818, 0x0004 Bytes, ...) -- CPU is running -- CPU_ReadMem(4 bytes @ 0x40010818) - Data: 00 00 00 00  returns 0x00 (0005ms, 2010ms total)
T0E34 009:922 JLINK_ReadMem (0x40020400, 0x0004 Bytes, ...) -- CPU is running -- CPU_ReadMem(4 bytes @ 0x40020400) - Data: 00 00 00 00  returns 0x00 (0006ms, 2016ms total)
T0E34 009:928 JLINK_ReadMem (0x40020408, 0x000C Bytes, ...) -- CPU is running -- CPU_ReadMem(12 bytes @ 0x40020408) - Data: 00 00 00 00 00 00 00 00 00 00 00 00  returns 0x00 (0004ms, 2020ms total)
T0E34 009:932 JLINK_ReadMem (0x40020414, 0x0004 Bytes, ...) -- CPU is running -- CPU_ReadMem(4 bytes @ 0x40020414) - Data: 00 00 00 00  returns 0x00 (0004ms, 2024ms total)
T0E34 009:936 JLINK_ReadMem (0x4002041C, 0x000C Bytes, ...) -- CPU is running -- CPU_ReadMem(12 bytes @ 0x4002041C) - Data: 00 00 00 00 00 00 00 00 00 00 00 00  returns 0x00 (0004ms, 2028ms total)
T0E34 009:940 JLINK_ReadMem (0x40020428, 0x0004 Bytes, ...) -- CPU is running -- CPU_ReadMem(4 bytes @ 0x40020428) - Data: 00 00 00 00  returns 0x00 (0004ms, 2032ms total)
T0E34 009:944 JLINK_ReadMem (0x40020430, 0x000C Bytes, ...) -- CPU is running -- CPU_ReadMem(12 bytes @ 0x40020430) - Data: 00 00 00 00 00 00 00 00 00 00 00 00  returns 0x00 (0005ms, 2037ms total)
T0E34 009:949 JLINK_ReadMem (0x4002043C, 0x0004 Bytes, ...) -- CPU is running -- CPU_ReadMem(4 bytes @ 0x4002043C) - Data: 00 00 00 00  returns 0x00 (0005ms, 2042ms total)
T0E34 009:954 JLINK_ReadMem (0x40020444, 0x000C Bytes, ...) -- CPU is running -- CPU_ReadMem(12 bytes @ 0x40020444) - Data: 00 00 00 00 00 00 00 00 00 00 00 00  returns 0x00 (0004ms, 2046ms total)
T0E34 009:958 JLINK_ReadMem (0x40020450, 0x0004 Bytes, ...) -- CPU is running -- CPU_ReadMem(4 bytes @ 0x40020450) - Data: 00 00 00 00  returns 0x00 (0003ms, 2049ms total)
T0E34 009:962 JLINK_ReadMem (0x40020458, 0x000C Bytes, ...) -- CPU is running -- CPU_ReadMem(12 bytes @ 0x40020458) - Data: 00 00 00 00 00 00 00 00 00 00 00 00  returns 0x00 (0003ms, 2053ms total)
T0E34 009:965 JLINK_ReadMem (0x40020464, 0x0004 Bytes, ...) -- CPU is running -- CPU_ReadMem(4 bytes @ 0x40020464) - Data: 00 00 00 00  returns 0x00 (0004ms, 2057ms total)
T0E34 009:969 JLINK_ReadMem (0x4002046C, 0x000C Bytes, ...) -- CPU is running -- CPU_ReadMem(12 bytes @ 0x4002046C) - Data: 00 00 00 00 00 00 00 00 00 00 00 00  returns 0x00 (0005ms, 2062ms total)
T0E34 009:974 JLINK_ReadMem (0x40020478, 0x0004 Bytes, ...) -- CPU is running -- CPU_ReadMem(4 bytes @ 0x40020478) - Data: 00 00 00 00  returns 0x00 (0005ms, 2067ms total)
T0E34 009:979 JLINK_ReadMem (0x40020480, 0x000C Bytes, ...) -- CPU is running -- CPU_ReadMem(12 bytes @ 0x40020480) - Data: 00 00 00 00 00 00 00 00 00 00 00 00  returns 0x00 (0004ms, 2071ms total)
T0E34 009:983 JLINK_ReadMem (0x4002048C, 0x0004 Bytes, ...) -- CPU is running -- CPU_ReadMem(4 bytes @ 0x4002048C) - Data: 00 00 00 00  returns 0x00 (0004ms, 2075ms total)
T0E34 009:987 JLINK_ReadMem (0x40011000, 0x000C Bytes, ...) -- CPU is running -- CPU_ReadMem(12 bytes @ 0x40011000) - Data: 44 44 44 44 44 44 44 44 00 00 00 00  returns 0x00 (0006ms, 2081ms total)
T0E34 009:993 JLINK_ReadMem (0x4001100C, 0x0004 Bytes, ...) -- CPU is running -- CPU_ReadMem(4 bytes @ 0x4001100C) - Data: 00 00 00 00  returns 0x00 (0004ms, 2085ms total)
T0E34 009:997 JLINK_ReadMem (0x40011018, 0x0004 Bytes, ...) -- CPU is running -- CPU_ReadMem(4 bytes @ 0x40011018) - Data: 00 00 00 00  returns 0x00 (0004ms, 2089ms total)
T0744 010:001 JLINK_IsHalted()  returns FALSE (0007ms, 2096ms total)
T0744 010:108 JLINK_IsHalted()  returns FALSE (0009ms, 2098ms total)
T0744 010:217 JLINK_IsHalted()  returns FALSE (0005ms, 2094ms total)
T0744 010:323 JLINK_IsHalted()  returns FALSE (0010ms, 2099ms total)
T0744 010:433 JLINK_ReadMemU32(0xE0001004, 0x0001 Items, ...) -- CPU is running -- CPU_ReadMem(4 bytes @ 0xE0001004) - Data: 5D 80 8A 0E  returns 0x01 (0007ms, 2096ms total)
T0E34 010:441 JLINK_ReadMem (0x40021000, 0x0024 Bytes, ...) -- CPU is running -- CPU_ReadMem(36 bytes @ 0x40021000) - Data: 83 51 03 03 0A 04 1D 00 00 00 00 00 00 00 00 00 ...  returns 0x00 (0006ms, 2102ms total)
T0E34 010:447 JLINK_ReadMem (0x40021024, 0x0004 Bytes, ...) -- CPU is running -- CPU_ReadMem(4 bytes @ 0x40021024) - Data: 00 00 00 1C  returns 0x00 (0005ms, 2107ms total)
T0E34 010:452 JLINK_ReadMem (0x40010800, 0x000C Bytes, ...) -- CPU is running -- CPU_ReadMem(12 bytes @ 0x40010800) - Data: 44 34 B1 B4 B4 44 84 88 1F 5F 00 00  returns 0x00 (0005ms, 2112ms total)
T0E34 010:457 JLINK_ReadMem (0x4001080C, 0x0004 Bytes, ...) -- CPU is running -- CPU_ReadMem(4 bytes @ 0x4001080C) - Data: 18 A0 00 00  returns 0x00 (0003ms, 2115ms total)
T0E34 010:460 JLINK_ReadMem (0x40010818, 0x0004 Bytes, ...) -- CPU is running -- CPU_ReadMem(4 bytes @ 0x40010818) - Data: 00 00 00 00  returns 0x00 (0004ms, 2119ms total)
T0E34 010:464 JLINK_ReadMem (0x40020400, 0x0004 Bytes, ...) -- CPU is running -- CPU_ReadMem(4 bytes @ 0x40020400) - Data: 00 00 00 00  returns 0x00 (0003ms, 2122ms total)
T0E34 010:468 JLINK_ReadMem (0x40020408, 0x000C Bytes, ...) -- CPU is running -- CPU_ReadMem(12 bytes @ 0x40020408) - Data: 00 00 00 00 00 00 00 00 00 00 00 00  returns 0x00 (0004ms, 2127ms total)
T0E34 010:473 JLINK_ReadMem (0x40020414, 0x0004 Bytes, ...) -- CPU is running -- CPU_ReadMem(4 bytes @ 0x40020414) - Data: 00 00 00 00  returns 0x00 (0003ms, 2131ms total)
T0E34 010:476 JLINK_ReadMem (0x4002041C, 0x000C Bytes, ...) -- CPU is running -- CPU_ReadMem(12 bytes @ 0x4002041C) - Data: 00 00 00 00 00 00 00 00 00 00 00 00  returns 0x00 (0004ms, 2135ms total)
T0E34 010:480 JLINK_ReadMem (0x40020428, 0x0004 Bytes, ...) -- CPU is running -- CPU_ReadMem(4 bytes @ 0x40020428) - Data: 00 00 00 00  returns 0x00 (0004ms, 2139ms total)
T0E34 010:484 JLINK_ReadMem (0x40020430, 0x000C Bytes, ...) -- CPU is running -- CPU_ReadMem(12 bytes @ 0x40020430) - Data: 00 00 00 00 00 00 00 00 00 00 00 00  returns 0x00 (0005ms, 2144ms total)
T0E34 010:489 JLINK_ReadMem (0x4002043C, 0x0004 Bytes, ...) -- CPU is running -- CPU_ReadMem(4 bytes @ 0x4002043C) - Data: 00 00 00 00  returns 0x00 (0005ms, 2149ms total)
T0E34 010:494 JLINK_ReadMem (0x40020444, 0x000C Bytes, ...) -- CPU is running -- CPU_ReadMem(12 bytes @ 0x40020444) - Data: 00 00 00 00 00 00 00 00 00 00 00 00  returns 0x00 (0004ms, 2153ms total)
T0E34 010:498 JLINK_ReadMem (0x40020450, 0x0004 Bytes, ...) -- CPU is running -- CPU_ReadMem(4 bytes @ 0x40020450) - Data: 00 00 00 00  returns 0x00 (0004ms, 2157ms total)
T0E34 010:502 JLINK_ReadMem (0x40020458, 0x000C Bytes, ...) -- CPU is running -- CPU_ReadMem(12 bytes @ 0x40020458) - Data: 00 00 00 00 00 00 00 00 00 00 00 00  returns 0x00 (0004ms, 2161ms total)
T0E34 010:506 JLINK_ReadMem (0x40020464, 0x0004 Bytes, ...) -- CPU is running -- CPU_ReadMem(4 bytes @ 0x40020464) - Data: 00 00 00 00  returns 0x00 (0003ms, 2164ms total)
T0E34 010:510 JLINK_ReadMem (0x4002046C, 0x000C Bytes, ...) -- CPU is running -- CPU_ReadMem(12 bytes @ 0x4002046C) - Data: 00 00 00 00 00 00 00 00 00 00 00 00  returns 0x00 (0003ms, 2168ms total)
